 (1651677251.190458)  can0  7B9   [8]  06 50 03 00 32 01 F4 00
 (1651677252.418027)  can0  7B9   [8]  03 59 02 B9 00 00 00 00
 (1651677253.679282)  can0  7B9   [8]  02 59 03 00 00 00 00 00
 (1651677255.776830)  can0  7B9   [8]  03 59 02 B9 00 00 00 00
 (1651677257.020607)  can0  7B9   [8]  02 59 03 00 00 00 00 00
 (1651677258.541879)  can0  7B9   [8]  03 59 02 B9 00 00 00 00
 (1651677260.238266)  can0  7B9   [8]  10 23 62 01 01 60 00 84
 (1651677260.240661)  can0  7B9   [8]  21 00 A0 80 00 00 00 00
 (1651677260.243373)  can0  7B9   [8]  22 00 00 00 00 00 00 00
 (1651677260.246009)  can0  7B9   [8]  23 00 00 00 00 00 00 00
 (1651677260.246018)  can0  7B9   [8]  24 00 00 00 00 00 00 40
 (1651677260.250700)  can0  7B9   [8]  25 00 00 00 00 00 00 00
 (1651677261.445749)  can0  7B9   [8]  10 23 62 01 00 E8 00 00
 (1651677261.448230)  can0  7B9   [8]  21 00 00 00 00 00 00 00
 (1651677261.450710)  can0  7B9   [8]  22 00 00 00 00 00 00 00
 (1651677261.453261)  can0  7B9   [8]  23 00 00 00 00 00 00 00
 (1651677261.458573)  can0  7B9   [8]  24 00 00 00 00 00 00 00
 (1651677261.458580)  can0  7B9   [8]  25 00 00 00 00 00 00 00
 (1651677262.655772)  can0  7B9   [8]  10 23 62 02 00 10 00 00
 (1651677262.658277)  can0  7B9   [8]  21 00 00 00 00 00 00 00
 (1651677262.660772)  can0  7B9   [8]  22 00 00 00 00 00 00 00
 (1651677262.665802)  can0  7B9   [8]  23 00 00 00 00 00 00 00
 (1651677262.665805)  can0  7B9   [8]  24 00 00 00 00 00 00 00
 (1651677262.668243)  can0  7B9   [8]  25 00 00 00 00 00 00 00
 (1651677263.966268)  can0  7B9   [8]  10 23 62 10 00 FF F8 1F
 (1651677263.968475)  can0  7B9   [8]  21 68 0D 00 38 00 00 00
 (1651677263.970779)  can0  7B9   [8]  22 00 00 00 00 00 00 00
 (1651677263.978309)  can0  7B9   [8]  23 00 00 00 00 00 00 00
 (1651677263.980757)  can0  7B9   [8]  24 00 00 00 00 00 00 00
 (1651677263.983285)  can0  7B9   [8]  25 00 00 00 00 00 00 00
 (1651677265.108352)  can0  7B9   [8]  10 23 62 15 00 BF 80 00
 (1651677265.117073)  can0  7B9   [8]  21 00 18 00 00 00 3F C0
 (1651677265.119615)  can0  7B9   [8]  22 00 00 00 00 00 00 00
 (1651677265.122092)  can0  7B9   [8]  23 00 00 00 00 00 00 00
 (1651677265.124551)  can0  7B9   [8]  24 00 00 00 00 00 00 00
 (1651677265.132061)  can0  7B9   [8]  25 00 00 00 00 00 00 00
 (1651677266.310887)  can0  7B9   [8]  10 23 62 20 00 68 00 00
 (1651677266.313346)  can0  7B9   [8]  21 00 00 00 00 00 00 00
 (1651677266.315846)  can0  7B9   [8]  22 00 00 00 00 00 00 00
 (1651677266.318339)  can0  7B9   [8]  23 00 00 00 00 00 00 00
 (1651677266.323385)  can0  7B9   [8]  24 00 00 00 00 00 00 00
 (1651677266.325869)  can0  7B9   [8]  25 00 00 00 00 00 00 00
 (1651677267.553411)  can0  7B9   [8]  10 23 62 22 00 27 81 E6
 (1651677267.557237)  can0  7B9   [8]  21 00 00 00 00 00 00 00
 (1651677267.559709)  can0  7B9   [8]  22 00 00 00 00 00 00 00
 (1651677267.559719)  can0  7B9   [8]  23 00 00 00 00 00 00 00
 (1651677267.564979)  can0  7B9   [8]  24 00 00 00 00 00 00 00
 (1651677267.564986)  can0  7B9   [8]  25 00 00 00 00 00 00 00
 (1651677268.821228)  can0  7B9   [8]  10 23 62 28 00 40 00 00
 (1651677268.826076)  can0  7B9   [8]  21 00 00 00 00 00 00 00
 (1651677268.828581)  can0  7B9   [8]  22 00 00 00 00 00 00 00
 (1651677268.828591)  can0  7B9   [8]  23 00 00 00 00 00 00 00
 (1651677268.828591)  can0  7B9   [8]  24 00 00 00 00 00 00 00
 (1651677268.828592)  can0  7B9   [8]  25 00 00 00 00 00 00 00
 (1651677269.990998)  can0  7B9   [8]  10 23 62 F1 00 00 00 00
 (1651677269.998447)  can0  7B9   [8]  21 00 00 00 00 00 00 00
 (1651677270.000956)  can0  7B9   [8]  22 00 00 00 00 00 00 84
 (1651677270.000963)  can0  7B9   [8]  23 00 00 00 00 00 00 00
 (1651677270.003579)  can0  7B9   [8]  24 00 00 00 00 00 00 00
 (1651677270.003588)  can0  7B9   [8]  25 00 00 00 00 00 00 00
 (1651677271.268470)  can0  7B9   [8]  10 0A 62 01 02 04 EA 00
 (1651677271.271028)  can0  7B9   [8]  21 01 17 D3 01 00 00 00
 (1651677272.541002)  can0  7B9   [8]  07 62 01 03 01 00 75 15
 (1651677273.767288)  can0  7B9   [8]  07 62 10 03 00 00 00 00
 (1651677275.026526)  can0  7B9   [8]  04 62 10 04 B2 00 00 00
 (1651677276.269847)  can0  7B9   [8]  04 62 10 05 8E 00 00 00
 (1651677277.512371)  can0  7B9   [8]  07 62 10 06 84 04 00 00
 (1651677278.806160)  can0  7B9   [8]  05 62 10 07 80 00 00 00
 (1651677279.996193)  can0  7B9   [8]  05 62 10 08 80 00 00 00
 (1651677281.273753)  can0  7B9   [8]  10 0D 62 10 09 00 02 80
 (1651677281.276222)  can0  7B9   [8]  21 00 FF F5 80 2D 00 03
 (1651677282.481242)  can0  7B9   [8]  04 62 10 0B 01 00 00 00
 (1651677283.742532)  can0  7B9   [8]  04 62 10 0C 00 00 00 00
 (1651677284.932552)  can0  7B9   [8]  04 62 10 0D 9E 00 00 00
 (1651677286.248872)  can0  7B9   [8]  10 0B 62 10 14 00 00 00
 (1651677286.255389)  can0  7B9   [8]  21 00 00 00 00 00 00 00
 (1651677287.456430)  can0  7B9   [8]  10 09 62 10 15 00 00 00
 (1651677287.458880)  can0  7B9   [8]  21 0C 13 E0 00 00 00 00
 (1651677288.715150)  can0  7B9   [8]  05 62 10 16 F0 80 00 00
 (1651677289.940231)  can0  7B9   [8]  05 62 10 17 FC 00 00 00
 (1651677291.163973)  can0  7B9   [8]  07 62 10 18 00 00 00 00
 (1651677292.407798)  can0  7B9   [8]  10 13 62 20 02 00 00 09
 (1651677292.410285)  can0  7B9   [8]  21 01 FF FE FC FC FD FF
 (1651677292.415262)  can0  7B9   [8]  22 05 0D 14 21 27 0A 00
 (1651677293.649054)  can0  7B9   [8]  10 13 62 20 03 11 11 11
 (1651677293.651536)  can0  7B9   [8]  21 11 11 11 11 11 11 11
 (1651677293.654038)  can0  7B9   [8]  22 11 11 11 11 11 1A 00
 (1651677294.924091)  can0  7B9   [8]  05 62 20 05 F0 00 00 00
 (1651677296.149123)  can0  7B9   [8]  05 62 28 02 80 00 00 00
 (1651677297.391662)  can0  7B9   [8]  10 09 62 10 25 00 00 00
 (1651677297.395392)  can0  7B9   [8]  21 00 00 00 00 00 00 00
 (1651677298.704179)  can0  7B9   [8]  04 62 10 1A 03 00 00 00
 (1651677299.946717)  can0  7B9   [8]  04 62 10 1B 00 00 00 00
 (1651677301.224228)  can0  7B9   [8]  04 62 10 1D 00 00 00 00
 (1651677302.486782)  can0  7B9   [8]  05 62 10 26 0E 2B 00 00
 (1651677303.691818)  can0  7B9   [8]  07 62 10 28 02 60 00 2C
 (1651677304.969328)  can0  7B9   [8]  05 62 10 33 00 00 00 00
 (1651677306.246903)  can0  7B9   [8]  05 62 10 34 80 00 00 00
 (1651677307.524388)  can0  7B9   [8]  07 62 10 35 FF 38 00 00
 (1651677308.838149)  can0  7B9   [8]  07 62 01 03 01 00 75 15
 (1651677310.109499)  can0  7B9   [8]  07 62 10 03 00 00 00 00
 (1651677311.360758)  can0  7B9   [8]  04 62 10 04 B1 00 00 00
 (1651677312.652003)  can0  7B9   [8]  04 62 10 05 8E 00 00 00
 (1651677313.912144)  can0  7B9   [8]  07 62 10 06 84 04 00 00
 (1651677315.104583)  can0  7B9   [8]  05 62 10 07 80 00 00 00
 (1651677316.364671)  can0  7B9   [8]  05 62 10 08 80 00 00 00
 (1651677317.607160)  can0  7B9   [8]  10 0D 62 10 09 00 02 80
 (1651677317.609648)  can0  7B9   [8]  21 00 FF D1 80 2D 00 03
 (1651677318.829654)  can0  7B9   [8]  04 62 10 0B 01 00 00 00
 (1651677320.109687)  can0  7B9   [8]  04 62 10 0C 00 00 00 00
 (1651677321.353491)  can0  7B9   [8]  04 62 10 0D A2 00 00 00
 (1651677322.611030)  can0  7B9   [8]  10 0B 62 10 14 00 00 00
 (1651677322.613511)  can0  7B9   [8]  21 00 00 00 00 00 00 00
 (1651677323.872298)  can0  7B9   [8]  10 09 62 10 15 00 00 FF
 (1651677323.874759)  can0  7B9   [8]  21 AE 14 00 00 00 00 00
 (1651677325.129840)  can0  7B9   [8]  05 62 10 16 F0 80 00 00
 (1651677326.389886)  can0  7B9   [8]  05 62 10 17 FC 00 00 00
 (1651677327.684893)  can0  7B9   [8]  07 62 10 18 00 00 00 00
 (1651677328.919952)  can0  7B9   [8]  10 13 62 20 02 00 00 09
 (1651677328.928822)  can0  7B9   [8]  21 01 FF FE FC FC FD FF
 (1651677328.931487)  can0  7B9   [8]  22 05 0D 14 21 27 0A 00
 (1651677330.117472)  can0  7B9   [8]  10 13 62 20 03 11 11 11
 (1651677330.119971)  can0  7B9   [8]  21 11 11 11 11 11 11 11
 (1651677330.122965)  can0  7B9   [8]  22 11 11 11 11 11 1A 00
 (1651677331.342928)  can0  7B9   [8]  05 62 20 05 F0 00 00 00
 (1651677332.552542)  can0  7B9   [8]  05 62 28 02 80 00 00 00
 (1651677333.810071)  can0  7B9   [8]  10 09 62 10 25 00 00 00
 (1651677333.812554)  can0  7B9   [8]  21 00 00 00 00 00 00 00
 (1651677335.038896)  can0  7B9   [8]  04 62 10 1A 03 00 00 00
 (1651677336.277648)  can0  7B9   [8]  04 62 10 1B 00 00 00 00
 (1651677337.502658)  can0  7B9   [8]  04 62 10 1D 00 00 00 00
 (1651677338.746406)  can0  7B9   [8]  05 62 10 26 0E 3A 00 00
 (1651677339.987730)  can0  7B9   [8]  07 62 10 28 02 60 00 2C
 (1651677341.248997)  can0  7B9   [8]  05 62 10 33 00 00 00 00
 (1651677342.472770)  can0  7B9   [8]  05 62 10 34 80 00 00 00
 (1651677343.734014)  can0  7B9   [8]  07 62 10 35 FF 90 00 00
 (1651677345.061589)  can0  7B9   [8]  07 62 01 03 01 00 75 15
 (1651677346.376594)  can0  7B9   [8]  07 62 10 03 00 00 00 00
 (1651677347.622922)  can0  7B9   [8]  04 62 10 04 B2 00 00 00
 (1651677348.900407)  can0  7B9   [8]  04 62 10 05 8E 00 00 00
 (1651677350.110567)  can0  7B9   [8]  07 62 10 06 84 04 00 00
 (1651677351.415502)  can0  7B9   [8]  05 62 10 07 80 00 00 00
 (1651677352.657995)  can0  7B9   [8]  05 62 10 08 80 00 00 00
 (1651677353.883066)  can0  7B9   [8]  10 0D 62 10 09 00 01 80
 (1651677353.885569)  can0  7B9   [8]  21 00 FF A4 80 2D 00 03
 (1651677355.145579)  can0  7B9   [8]  04 62 10 0B 01 00 00 00
 (1651677356.424374)  can0  7B9   [8]  04 62 10 0C 00 00 00 00
 (1651677357.701891)  can0  7B9   [8]  04 62 10 0D 9D 00 00 00
 (1651677358.923247)  can0  7B9   [8]  10 0B 62 10 14 00 00 00
 (1651677358.925719)  can0  7B9   [8]  21 00 00 00 00 00 00 00
 (1651677360.166960)  can0  7B9   [8]  10 09 62 10 15 00 00 FF
 (1651677360.169432)  can0  7B9   [8]  21 52 14 14 00 00 00 00
 (1651677361.394531)  can0  7B9   [8]  05 62 10 16 F0 80 00 00
 (1651677362.688276)  can0  7B9   [8]  05 62 10 17 FC 00 00 00
 (1651677363.931144)  can0  7B9   [8]  07 62 10 18 00 00 00 00
 (1651677365.242123)  can0  7B9   [8]  10 13 62 20 02 00 00 09
 (1651677365.244644)  can0  7B9   [8]  21 01 FF FE FC FC FD FF
 (1651677365.247097)  can0  7B9   [8]  22 05 0D 14 21 27 0A 00
 (1651677368.933381)  can0  7B9   [8]  02 7E 00 00 00 00 00 00
 (1651677370.199721)  can0  7B9   [8]  06 50 01 00 32 01 F4 00
 (1651677371.418509)  can0  7B9   [8]  06 50 03 00 32 01 F4 00
 (1651677372.644772)  can0  7B9   [8]  02 7E 00 00 00 00 00 00
 (1651677373.886076)  can0  7B9   [8]  05 62 10 26 0E 2B 00 00
 (1651677375.094018)  can0  7B9   [8]  05 62 10 26 0E 2B 00 00
 (1651677376.286123)  can0  7B9   [8]  05 62 10 26 0E 2B 00 00
 (1651677377.491232)  can0  7B9   [8]  05 62 10 26 0E 3A 00 00
 (1651677378.682419)  can0  7B9   [8]  05 62 10 26 0E 2B 00 00
 (1651677379.943833)  can0  7B9   [8]  05 62 10 26 0E 2B 00 00
 (1651677381.166229)  can0  7B9   [8]  05 62 10 26 0E 3A 00 00
 (1651677382.391269)  can0  7B9   [8]  05 62 10 26 0E 3A 00 00
 (1651677383.601514)  can0  7B9   [8]  05 62 10 26 0E 3A 00 00
 (1651677384.791298)  can0  7B9   [8]  05 62 10 26 0E 2B 00 00
 (1651677386.050137)  can0  7B9   [8]  05 62 10 26 0E 2B 00 00
 (1651677387.298894)  can0  7B9   [8]  05 62 10 26 0E 2B 00 00
 (1651677388.553909)  can0  7B9   [8]  05 62 10 26 0E 2B 00 00
 (1651677389.760158)  can0  7B9   [8]  05 62 10 26 0E 3A 00 00
 (1651677390.966489)  can0  7B9   [8]  05 62 10 26 0E 2B 00 00
 (1651677392.227731)  can0  7B9   [8]  05 62 10 26 0E 3A 00 00
 (1651677393.489541)  can0  7B9   [8]  05 62 10 26 0E 2B 00 00
 (1651677394.695322)  can0  7B9   [8]  05 62 10 26 0E 3A 00 00
 (1651677395.919102)  can0  7B9   [8]  05 62 10 26 0E 2B 00 00
 (1651677397.214148)  can0  7B9   [8]  05 62 10 26 0E 3A 00 00
 (1651677398.457068)  can0  7B9   [8]  05 62 10 26 0E 3A 00 00
 (1651677399.681957)  can0  7B9   [8]  05 62 10 26 0E 3A 00 00
 (1651677400.959214)  can0  7B9   [8]  05 62 10 26 0E 3A 00 00
 (1651677402.221747)  can0  7B9   [8]  05 62 10 26 0E 2B 00 00
 (1651677403.461768)  can0  7B9   [8]  05 62 10 26 0E 2B 00 00
 (1651677404.756823)  can0  7B9   [8]  05 62 10 26 0E 3A 00 00
 (1651677406.053101)  can0  7B9   [8]  05 62 10 26 0E 2B 00 00
 (1651677407.294396)  can0  7B9   [8]  05 62 10 26 0E 2B 00 00
 (1651677408.574428)  can0  7B9   [8]  05 62 10 26 0E 2B 00 00
 (1651677409.831976)  can0  7B9   [8]  05 62 10 26 0E 2B 00 00
 (1651677411.091992)  can0  7B9   [8]  05 62 10 26 0E 3A 00 00
 (1651677412.373257)  can0  7B9   [8]  05 62 10 26 0E 2B 00 00
 (1651677413.598274)  can0  7B9   [8]  05 62 10 26 0E 3A 00 00
 (1651677414.823285)  can0  7B9   [8]  05 62 10 26 0E 2B 00 00
 (1651677416.079594)  can0  7B9   [8]  05 62 10 26 0E 3A 00 00
 (1651677417.305872)  can0  7B9   [8]  05 62 10 26 0E 3A 00 00
 (1651677418.582151)  can0  7B9   [8]  05 62 10 26 0E 3A 00 00
 (1651677419.827191)  can0  7B9   [8]  05 62 10 26 0E 3A 00 00
 (1651677421.061171)  can0  7B9   [8]  05 62 10 26 0E 3A 00 00
 (1651677422.327339)  can0  7B9   [8]  05 62 10 26 0E 3A 00 00
 (1651677423.534776)  can0  7B9   [8]  05 62 10 26 0E 3A 00 00
 (1651677424.778587)  can0  7B9   [8]  05 62 10 26 0E 3A 00 00
 (1651677426.108588)  can0  7B9   [8]  05 62 10 26 0E 2B 00 00
 (1651677427.367378)  can0  7B9   [8]  05 62 10 26 0E 3A 00 00
 (1651677428.626361)  can0  7B9   [8]  05 62 10 26 0E 3A 00 00
 (1651677429.800218)  can0  7B9   [8]  05 62 10 26 0E 3A 00 00
 (1651677431.059983)  can0  7B9   [8]  05 62 10 26 0E 3A 00 00
 (1651677432.302506)  can0  7B9   [8]  05 62 10 26 0E 3A 00 00
 (1651677433.530458)  can0  7B9   [8]  05 62 10 26 0E 3A 00 00
 (1651677434.805072)  can0  7B9   [8]  05 62 10 26 0E 3A 00 00
 (1651677436.120116)  can0  7B9   [8]  05 62 10 26 0E 2B 00 00
 (1651677437.326398)  can0  7B9   [8]  05 62 10 26 0E 3A 00 00
 (1651677438.567729)  can0  7B9   [8]  05 62 10 26 0E 3A 00 00
 (1651677439.787720)  can0  7B9   [8]  05 62 10 26 0E 3A 00 00
 (1651677441.017720)  can0  7B9   [8]  05 62 10 26 0E 2B 00 00
 (1651677442.226542)  can0  7B9   [8]  05 62 10 26 0E 3A 00 00
 (1651677443.467877)  can0  7B9   [8]  05 62 10 26 0E 3A 00 00
 (1651677444.710301)  can0  7B9   [8]  05 62 10 26 0E 3A 00 00
 (1651677445.919095)  can0  7B9   [8]  05 62 10 26 0E 3A 00 00
 (1651677447.160377)  can0  7B9   [8]  05 62 10 26 0E 3A 00 00
 (1651677448.386826)  can0  7B9   [8]  05 62 10 26 0E 3A 00 00
 (1651677449.631687)  can0  7B9   [8]  05 62 10 26 0E 3A 00 00
 (1651677450.852994)  can0  7B9   [8]  05 62 10 26 0E 3A 00 00
 (1651677452.165474)  can0  7B9   [8]  05 62 10 26 0E 3A 00 00
 (1651677453.390533)  can0  7B9   [8]  05 62 10 26 0E 3A 00 00
 (1651677454.651807)  can0  7B9   [8]  05 62 10 26 0E 3A 00 00
 (1651677455.893095)  can0  7B9   [8]  05 62 10 26 0E 3A 00 00
 (1651677457.133472)  can0  7B9   [8]  05 62 10 26 0E 3A 00 00
 (1651677458.395650)  can0  7B9   [8]  05 62 10 26 0E 3A 00 00
 (1651677459.605633)  can0  7B9   [8]  05 62 10 26 0E 3A 00 00
 (1651677460.863270)  can0  7B9   [8]  05 62 10 26 0E 3A 00 00
 (1651677462.126997)  can0  7B9   [8]  05 62 10 26 0E 3A 00 00
 (1651677463.330786)  can0  7B9   [8]  05 62 10 26 0E 3A 00 00
 (1651677464.573364)  can0  7B9   [8]  05 62 10 26 0E 3A 00 00
 (1651677465.809577)  can0  7B9   [8]  05 62 10 26 0E 3A 00 00
 (1651677467.040953)  can0  7B9   [8]  05 62 10 26 0E 3A 00 00
 (1651677468.268371)  can0  7B9   [8]  05 62 10 26 0E 3A 00 00
 (1651677469.543416)  can0  7B9   [8]  05 62 10 26 0E 3A 00 00
 (1651677470.804719)  can0  7B9   [8]  05 62 10 26 0E 3A 00 00
 (1651677472.034756)  can0  7B9   [8]  05 62 10 26 0E 3A 00 00
 (1651677473.342435)  can0  7B9   [8]  05 62 10 26 0E 3A 00 00
 (1651677474.602549)  can0  7B9   [8]  05 62 10 26 0E 3A 00 00
 (1651677475.846080)  can0  7B9   [8]  05 62 10 26 0E 3A 00 00
 (1651677477.103622)  can0  7B9   [8]  05 62 10 26 0E 3A 00 00
 (1651677478.349948)  can0  7B9   [8]  05 62 10 26 0E 3A 00 00
 (1651677479.588672)  can0  7B9   [8]  05 62 10 26 0E 3A 00 00
 (1651677480.833677)  can0  7B9   [8]  05 62 10 26 0E 2B 00 00
 (1651677482.074979)  can0  7B9   [8]  05 62 10 26 0E 3A 00 00
 (1651677483.316254)  can0  7B9   [8]  05 62 10 26 0E 3A 00 00
 (1651677484.612539)  can0  7B9   [8]  05 62 10 26 0E 3A 00 00
 (1651677485.825111)  can0  7B9   [8]  05 62 10 26 0E 3A 00 00
 (1651677487.078881)  can0  7B9   [8]  05 62 10 26 0E 3A 00 00
 (1651677488.323951)  can0  7B9   [8]  05 62 10 26 0E 3A 00 00
 (1651677489.511429)  can0  7B9   [8]  05 62 10 26 0E 3A 00 00
 (1651677490.858967)  can0  7B9   [8]  05 62 10 26 0E 3A 00 00
 (1651677492.086491)  can0  7B9   [8]  05 62 10 26 0E 3A 00 00
 (1651677493.309046)  can0  7B9   [8]  05 62 10 26 0E 3A 00 00
 (1651677494.609053)  can0  7B9   [8]  05 62 10 26 0E 3A 00 00
 (1651677495.850309)  can0  7B9   [8]  05 62 10 26 0E 3A 00 00
 (1651677497.072891)  can0  7B9   [8]  05 62 10 26 0E 3A 00 00
 (1651677498.316633)  can0  7B9   [8]  05 62 10 26 0E 3A 00 00
 (1651677499.557934)  can0  7B9   [8]  05 62 10 26 0E 3A 00 00
 (1651677500.781680)  can0  7B9   [8]  05 62 10 26 0E 3A 00 00
 (1651677502.006743)  can0  7B9   [8]  05 62 10 26 0E 3A 00 00
 (1651677503.196768)  can0  7B9   [8]  05 62 10 26 0E 3A 00 00
 (1651677504.459294)  can0  7B9   [8]  05 62 10 26 0E 3A 00 00
 (1651677505.664310)  can0  7B9   [8]  05 62 10 26 0E 3A 00 00
 (1651677506.908112)  can0  7B9   [8]  05 62 10 26 0E 3A 00 00
 (1651677508.155614)  can0  7B9   [8]  05 62 10 26 0E 4A 00 00
 (1651677509.339437)  can0  7B9   [8]  05 62 10 26 0E 3A 00 00
 (1651677510.616967)  can0  7B9   [8]  05 62 10 26 0E 3A 00 00
 (1651677511.894488)  can0  7B9   [8]  05 62 10 26 0E 3A 00 00
 (1651677513.207060)  can0  7B9   [8]  05 62 10 26 0E 4A 00 00
 (1651677514.537102)  can0  7B9   [8]  05 62 10 26 0E 4A 00 00
 (1651677515.849581)  can0  7B9   [8]  05 62 10 26 0E 4A 00 00
 (1651677517.057200)  can0  7B9   [8]  05 62 10 26 0E 4A 00 00
 (1651677518.317169)  can0  7B9   [8]  05 62 10 26 0E 4A 00 00
 (1651677519.579680)  can0  7B9   [8]  05 62 10 26 0E 59 00 00
 (1651677520.803430)  can0  7B9   [8]  05 62 10 26 0E 4A 00 00
 (1651677522.062221)  can0  7B9   [8]  05 62 10 26 0E 59 00 00
 (1651677523.273638)  can0  7B9   [8]  05 62 10 26 0E 59 00 00
 (1651677524.529769)  can0  7B9   [8]  05 62 10 26 0E 4A 00 00
 (1651677525.722340)  can0  7B9   [8]  05 62 10 26 0E 59 00 00
 (1651677526.979864)  can0  7B9   [8]  05 62 10 26 0E 4A 00 00
 (1651677528.209866)  can0  7B9   [8]  05 62 10 26 0E 59 00 00
 (1651677529.482411)  can0  7B9   [8]  05 62 10 26 0E 59 00 00
 (1651677530.724946)  can0  7B9   [8]  05 62 10 26 0E 59 00 00
 (1651677531.984997)  can0  7B9   [8]  05 62 10 26 0E 59 00 00
 (1651677533.280368)  can0  7B9   [8]  05 62 10 26 0E 59 00 00
 (1651677534.507531)  can0  7B9   [8]  05 62 10 26 0E 59 00 00
 (1651677535.733960)  can0  7B9   [8]  05 62 10 26 0E 68 00 00
 (1651677537.010106)  can0  7B9   [8]  05 62 10 26 0E 68 00 00
 (1651677538.215138)  can0  7B9   [8]  05 62 10 26 0E 59 00 00
 (1651677539.477723)  can0  7B9   [8]  05 62 10 26 0E 68 00 00
 (1651677540.752702)  can0  7B9   [8]  05 62 10 26 0E 68 00 00
 (1651677541.977718)  can0  7B9   [8]  05 62 10 26 0E 68 00 00
 (1651677543.275273)  can0  7B9   [8]  05 62 10 26 0E 68 00 00
 (1651677544.517786)  can0  7B9   [8]  05 62 10 26 0E 68 00 00
 (1651677545.759093)  can0  7B9   [8]  05 62 10 26 0E 68 00 00
 (1651677547.035424)  can0  7B9   [8]  05 62 10 26 0E 68 00 00
 (1651677548.295359)  can0  7B9   [8]  05 62 10 26 0E 59 00 00
 (1651677549.507901)  can0  7B9   [8]  05 62 10 26 0E 68 00 00
 (1651677550.762947)  can0  7B9   [8]  05 62 10 26 0E 68 00 00
 (1651677551.991725)  can0  7B9   [8]  05 62 10 26 0E 68 00 00
 (1651677553.230528)  can0  7B9   [8]  05 62 10 26 0E 68 00 00
 (1651677554.440695)  can0  7B9   [8]  05 62 10 26 0E 68 00 00
 (1651677555.698033)  can0  7B9   [8]  05 62 10 26 0E 77 00 00
 (1651677556.925574)  can0  7B9   [8]  05 62 10 26 0E 68 00 00
 (1651677558.150625)  can0  7B9   [8]  05 62 10 26 0E 68 00 00
 (1651677559.423509)  can0  7B9   [8]  05 62 10 26 0E 77 00 00
 (1651677560.668193)  can0  7B9   [8]  05 62 10 26 0E 77 00 00
 (1651677561.928203)  can0  7B9   [8]  05 62 10 26 0E 77 00 00
 (1651677871.672182)  can0  7B9   [8]  02 7E 00 00 00 00 00 00
 (1651677874.417234)  can0  7B9   [8]  02 7E 00 00 00 00 00 00
 (1651677875.693586)  can0  7B9   [8]  06 50 01 00 32 01 F4 00
 (1651677876.942287)  can0  7B9   [8]  06 50 03 00 32 01 F4 00
 (1651677878.213671)  can0  7B9   [8]  03 59 02 B9 00 00 00 00
 (1651677879.509865)  can0  7B9   [8]  02 59 03 00 00 00 00 00
 (1651677881.591138)  can0  7B9   [8]  03 59 02 B9 00 00 00 00
 (1651677882.833814)  can0  7B9   [8]  02 59 03 00 00 00 00 00
 (1651677884.303739)  can0  7B9   [8]  03 59 02 B9 00 00 00 00
 (1651677885.616293)  can0  7B9   [8]  02 59 03 00 00 00 00 00
 (1651677887.140076)  can0  7B9   [8]  03 59 02 B9 00 00 00 00
 (1651677888.363828)  can0  7B9   [8]  02 59 03 00 00 00 00 00
 (1651677889.855133)  can0  7B9   [8]  03 59 02 B9 00 00 00 00
 (1651677891.567688)  can0  7B9   [8]  10 23 62 01 01 60 00 84
 (1651677891.572670)  can0  7B9   [8]  21 00 A0 80 00 00 00 00
 (1651677891.581766)  can0  7B9   [8]  22 00 00 00 00 00 00 00
 (1651677891.581776)  can0  7B9   [8]  23 00 00 00 00 00 00 00
 (1651677891.584091)  can0  7B9   [8]  24 00 00 00 00 00 00 40
 (1651677891.586954)  can0  7B9   [8]  25 00 00 00 00 00 00 00
 (1651677892.808963)  can0  7B9   [8]  10 23 62 01 00 E8 00 00
 (1651677892.814298)  can0  7B9   [8]  21 00 00 00 00 00 00 00
 (1651677892.816461)  can0  7B9   [8]  22 00 00 00 00 00 00 00
 (1651677892.821727)  can0  7B9   [8]  23 00 00 00 00 00 00 00
 (1651677892.821739)  can0  7B9   [8]  24 00 00 00 00 00 00 00
 (1651677892.821739)  can0  7B9   [8]  25 00 00 00 00 00 00 00
 (1651677894.034009)  can0  7B9   [8]  10 23 62 02 00 10 00 00
 (1651677894.039012)  can0  7B9   [8]  21 00 00 00 00 00 00 00
 (1651677894.041539)  can0  7B9   [8]  22 00 00 00 00 00 00 00
 (1651677894.041542)  can0  7B9   [8]  23 00 00 00 00 00 00 00
 (1651677894.046508)  can0  7B9   [8]  24 00 00 00 00 00 00 00
 (1651677894.049285)  can0  7B9   [8]  25 00 00 00 00 00 00 00
 (1651677895.295297)  can0  7B9   [8]  10 23 62 10 00 FF F8 1F
 (1651677895.297781)  can0  7B9   [8]  21 68 0D 00 38 00 00 00
 (1651677895.300271)  can0  7B9   [8]  22 00 00 00 00 00 00 00
 (1651677895.310469)  can0  7B9   [8]  23 00 00 00 00 00 00 00
 (1651677895.310478)  can0  7B9   [8]  24 00 00 00 00 00 00 00
 (1651677895.310478)  can0  7B9   [8]  25 00 00 00 00 00 00 00
 (1651677896.522831)  can0  7B9   [8]  10 23 62 15 00 BF 80 00
 (1651677896.525314)  can0  7B9   [8]  21 00 18 00 00 00 3F C0
 (1651677896.531612)  can0  7B9   [8]  22 00 00 00 00 00 00 00
 (1651677896.531623)  can0  7B9   [8]  23 00 00 00 00 00 00 00
 (1651677896.534092)  can0  7B9   [8]  24 00 00 00 00 00 00 00
 (1651677896.536861)  can0  7B9   [8]  25 00 00 00 00 00 00 00
 (1651677897.796640)  can0  7B9   [8]  10 23 62 20 00 68 00 00
 (1651677897.799085)  can0  7B9   [8]  21 00 00 00 00 00 00 00
 (1651677897.801582)  can0  7B9   [8]  22 00 00 00 00 00 00 00
 (1651677897.804076)  can0  7B9   [8]  23 00 00 00 00 00 00 00
 (1651677897.809123)  can0  7B9   [8]  24 00 00 00 00 00 00 00
 (1651677897.811605)  can0  7B9   [8]  25 00 00 00 00 00 00 00
 (1651677899.056633)  can0  7B9   [8]  10 23 62 22 00 27 81 E6
 (1651677899.059126)  can0  7B9   [8]  21 00 00 00 00 00 00 00
 (1651677899.061639)  can0  7B9   [8]  22 00 00 00 00 00 00 00
 (1651677899.064129)  can0  7B9   [8]  23 00 00 00 00 00 00 00
 (1651677899.069138)  can0  7B9   [8]  24 00 00 00 00 00 00 00
 (1651677899.069150)  can0  7B9   [8]  25 00 00 00 00 00 00 00
 (1651677900.264155)  can0  7B9   [8]  10 23 62 28 00 40 00 00
 (1651677900.266644)  can0  7B9   [8]  21 00 00 00 00 00 00 00
 (1651677900.269155)  can0  7B9   [8]  22 00 00 00 00 00 00 00
 (1651677900.271656)  can0  7B9   [8]  23 00 00 00 00 00 00 00
 (1651677900.276687)  can0  7B9   [8]  24 00 00 00 00 00 00 00
 (1651677900.279134)  can0  7B9   [8]  25 00 00 00 00 00 00 00
 (1651677901.524241)  can0  7B9   [8]  10 23 62 F1 00 00 00 00
 (1651677901.526680)  can0  7B9   [8]  21 00 00 00 00 00 00 00
 (1651677901.529217)  can0  7B9   [8]  22 00 00 00 00 00 00 84
 (1651677901.531812)  can0  7B9   [8]  23 00 00 00 00 00 00 00
 (1651677901.536862)  can0  7B9   [8]  24 00 00 00 00 00 00 00
 (1651677901.536871)  can0  7B9   [8]  25 00 00 00 00 00 00 00
 (1651677902.751739)  can0  7B9   [8]  10 0A 62 01 02 04 EA 00
 (1651677902.754182)  can0  7B9   [8]  21 0A BA A9 01 00 00 00
 (1651677904.028010)  can0  7B9   [8]  07 62 01 03 01 00 75 17
 (1651677905.306790)  can0  7B9   [8]  07 62 10 03 08 08 08 08
 (1651677906.584317)  can0  7B9   [8]  04 62 10 04 B1 00 00 00
 (1651677907.809344)  can0  7B9   [8]  04 62 10 05 8E 00 00 00
 (1651677909.133253)  can0  7B9   [8]  07 62 10 06 84 80 00 00
 (1651677910.309862)  can0  7B9   [8]  05 62 10 07 80 00 00 00
 (1651677911.569437)  can0  7B9   [8]  05 62 10 08 80 00 00 00
 (1651677912.815754)  can0  7B9   [8]  10 0D 62 10 09 00 00 80
 (1651677912.818233)  can0  7B9   [8]  21 00 FF B7 80 2D 00 06
 (1651677914.072030)  can0  7B9   [8]  04 62 10 0B 03 00 00 00
 (1651677915.352085)  can0  7B9   [8]  04 62 10 0C 00 00 00 00
 (1651677916.559561)  can0  7B9   [8]  04 62 10 0D A7 00 00 00
 (1651677917.802120)  can0  7B9   [8]  10 0B 62 10 14 00 00 00
 (1651677917.804598)  can0  7B9   [8]  21 00 00 00 00 00 00 00
 (1651677919.129668)  can0  7B9   [8]  10 09 62 10 15 00 00 FF
 (1651677919.132088)  can0  7B9   [8]  21 6C 14 18 00 00 00 00
 (1651677920.354663)  can0  7B9   [8]  05 62 10 16 F0 80 00 00
 (1651677921.667184)  can0  7B9   [8]  05 62 10 17 FC 00 00 00
 (1651677922.909720)  can0  7B9   [8]  07 62 10 18 00 0A 00 00
 (1651677924.187298)  can0  7B9   [8]  10 13 62 20 02 00 00 09
 (1651677924.191010)  can0  7B9   [8]  21 01 FF FE FC FC FD FF
 (1651677924.193499)  can0  7B9   [8]  22 05 0D 14 21 27 0A 00
 (1651677925.466056)  can0  7B9   [8]  10 13 62 20 03 11 11 11
 (1651677925.468577)  can0  7B9   [8]  21 11 11 11 11 11 11 11
 (1651677925.470992)  can0  7B9   [8]  22 11 11 11 11 11 1A 00
 (1651677926.727328)  can0  7B9   [8]  05 62 20 05 F0 00 00 00
 (1651677927.914839)  can0  7B9   [8]  05 62 28 02 80 00 00 00
 (1651677929.144883)  can0  7B9   [8]  10 09 62 10 25 00 00 00
 (1651677929.147438)  can0  7B9   [8]  21 00 03 E7 00 00 00 00
 (1651677930.417891)  can0  7B9   [8]  04 62 10 1A 03 00 00 00
 (1651677931.624951)  can0  7B9   [8]  04 62 10 1B 00 00 00 00
 (1651677932.885361)  can0  7B9   [8]  04 62 10 1D 00 00 00 00
 (1651677934.094983)  can0  7B9   [8]  05 62 10 26 0F AE 00 00
 (1651677935.355025)  can0  7B9   [8]  07 62 10 28 02 49 00 2F
 (1651677936.648812)  can0  7B9   [8]  05 62 10 33 00 00 00 00
 (1651677937.925089)  can0  7B9   [8]  05 62 10 34 80 00 00 00
 (1651677939.165461)  can0  7B9   [8]  07 62 10 35 01 44 00 01
 (1651677940.447661)  can0  7B9   [8]  07 62 01 03 01 00 75 17
 (1651677941.705210)  can0  7B9   [8]  07 62 10 03 27 27 27 27
 (1651677943.000242)  can0  7B9   [8]  04 62 10 04 AD 00 00 00
 (1651677944.219283)  can0  7B9   [8]  04 62 10 05 8E 00 00 00
 (1651677945.485749)  can0  7B9   [8]  07 62 10 06 84 00 00 00
 (1651677946.727871)  can0  7B9   [8]  05 62 10 07 80 00 00 00
 (1651677947.971578)  can0  7B9   [8]  05 62 10 08 80 00 00 00
 (1651677949.250411)  can0  7B9   [8]  10 0D 62 10 09 00 00 80
 (1651677949.252888)  can0  7B9   [8]  21 27 04 20 80 2D 00 06
 (1651677950.475394)  can0  7B9   [8]  04 62 10 0B 03 00 00 00
 (1651677951.715454)  can0  7B9   [8]  04 62 10 0C 25 00 00 00
 (1651677952.976682)  can0  7B9   [8]  04 62 10 0D 9F 00 00 00
 (1651677954.288007)  can0  7B9   [8]  10 0B 62 10 14 21 95 21
 (1651677954.290519)  can0  7B9   [8]  21 9E 21 82 21 83 00 00
 (1651677955.530555)  can0  7B9   [8]  10 09 62 10 15 15 00 09
 (1651677955.533039)  can0  7B9   [8]  21 98 33 9C 00 00 00 00
 (1651677956.828085)  can0  7B9   [8]  05 62 10 16 F0 80 00 00
 (1651677958.106850)  can0  7B9   [8]  05 62 10 17 FC 00 00 00
 (1651677959.363133)  can0  7B9   [8]  07 62 10 18 00 0A 00 00
 (1651677960.570688)  can0  7B9   [8]  10 13 62 20 02 00 00 09
 (1651677960.573169)  can0  7B9   [8]  21 01 FF FE FC FC FD FF
 (1651677960.575662)  can0  7B9   [8]  22 05 0D 14 21 27 0A 00
 (1651677961.778233)  can0  7B9   [8]  10 13 62 20 03 11 11 11
 (1651677961.783184)  can0  7B9   [8]  21 11 11 11 11 11 11 11
 (1651677961.789494)  can0  7B9   [8]  22 11 11 11 11 11 1A 00
 (1651677963.003212)  can0  7B9   [8]  05 62 20 05 F0 00 00 00
 (1651677964.245759)  can0  7B9   [8]  05 62 28 02 80 00 00 00
 (1651677965.505798)  can0  7B9   [8]  10 09 62 10 25 00 00 00
 (1651677965.508283)  can0  7B9   [8]  21 00 01 2F 00 00 00 00
 (1651677966.765825)  can0  7B9   [8]  04 62 10 1A 03 00 00 00
 (1651677967.938692)  can0  7B9   [8]  04 62 10 1B 00 00 00 00
 (1651677969.113378)  can0  7B9   [8]  04 62 10 1D 00 00 00 00
 (1651677970.355915)  can0  7B9   [8]  05 62 10 26 0F CE 00 00
 (1651677971.618425)  can0  7B9   [8]  07 62 10 28 02 45 00 2F
 (1651677972.890984)  can0  7B9   [8]  05 62 10 33 00 00 00 00
 (1651677974.154727)  can0  7B9   [8]  05 62 10 34 80 00 00 00
 (1651677975.413543)  can0  7B9   [8]  07 62 10 35 FC C0 00 01
 (1651677976.671087)  can0  7B9   [8]  07 62 01 03 01 00 75 18
 (1651677977.914828)  can0  7B9   [8]  07 62 10 03 18 18 18 18
 (1651677979.158617)  can0  7B9   [8]  04 62 10 04 AE 00 00 00
 (1651677980.398958)  can0  7B9   [8]  04 62 10 05 8E 00 00 00
 (1651677981.641263)  can0  7B9   [8]  07 62 10 06 84 80 00 00
 (1651677982.867468)  can0  7B9   [8]  05 62 10 07 80 00 00 00
 (1651677984.143787)  can0  7B9   [8]  05 62 10 08 80 00 00 00
 (1651677985.405060)  can0  7B9   [8]  10 0D 62 10 09 00 00 80
 (1651677985.407584)  can0  7B9   [8]  21 00 FF A7 7F F1 00 02
 (1651677986.666271)  can0  7B9   [8]  04 62 10 0B 03 00 00 00
 (1651677987.853970)  can0  7B9   [8]  04 62 10 0C 00 00 00 00
 (1651677989.048856)  can0  7B9   [8]  04 62 10 0D 9D 00 00 00
 (1651677990.307720)  can0  7B9   [8]  10 0B 62 10 14 00 00 00
 (1651677990.310135)  can0  7B9   [8]  21 00 00 00 00 00 00 00
 (1651677991.511488)  can0  7B9   [8]  10 09 62 10 15 00 00 FF
 (1651677991.513958)  can0  7B9   [8]  21 22 13 DC 00 00 00 00
 (1651677992.798993)  can0  7B9   [8]  05 62 10 16 F0 80 00 00
 (1651677994.066452)  can0  7B9   [8]  05 62 10 17 FC 00 00 00
 (1651677995.291520)  can0  7B9   [8]  07 62 10 18 00 0A 00 00
 (1651677999.037885)  can0  7B9   [8]  02 7E 00 00 00 00 00 00
 (1651678000.296657)  can0  7B9   [8]  06 50 01 00 32 01 F4 00
 (1651678001.522934)  can0  7B9   [8]  06 50 03 00 32 01 F4 00
 (1651678002.836706)  can0  7B9   [8]  02 7E 00 00 00 00 00 00
 (1651678004.094251)  can0  7B9   [8]  05 62 10 26 0F FD 00 00
 (1651678005.389273)  can0  7B9   [8]  05 62 10 26 10 0D 00 00
 (1651678006.599341)  can0  7B9   [8]  05 62 10 26 0F FD 00 00
 (1651678007.856832)  can0  7B9   [8]  05 62 10 26 10 0D 00 00
 (1651678009.065621)  can0  7B9   [8]  05 62 10 26 10 0D 00 00
 (1651678010.341907)  can0  7B9   [8]  05 62 10 26 10 0D 00 00
 (1651678011.567348)  can0  7B9   [8]  05 62 10 26 10 1D 00 00
 (1651678012.793179)  can0  7B9   [8]  05 62 10 26 10 1D 00 00
 (1651678014.001994)  can0  7B9   [8]  05 62 10 26 10 1D 00 00
 (1651678015.205787)  can0  7B9   [8]  05 62 10 26 10 1D 00 00
 (1651678016.484572)  can0  7B9   [8]  05 62 10 26 10 1D 00 00
 (1651678017.729545)  can0  7B9   [8]  05 62 10 26 10 1D 00 00
 (1651678019.007122)  can0  7B9   [8]  05 62 10 26 10 1D 00 00
 (1651678020.247176)  can0  7B9   [8]  05 62 10 26 10 1D 00 00
 (1651678021.577193)  can0  7B9   [8]  05 62 10 26 10 1D 00 00
 (1651678022.837272)  can0  7B9   [8]  05 62 10 26 10 2D 00 00
 (1651678024.065978)  can0  7B9   [8]  05 62 10 26 10 2D 00 00
 (1651678025.322299)  can0  7B9   [8]  05 62 10 26 10 2D 00 00
 (1651678026.548541)  can0  7B9   [8]  05 62 10 26 10 2D 00 00
 (1651678027.825142)  can0  7B9   [8]  05 62 10 26 10 2D 00 00
 (1651678029.014906)  can0  7B9   [8]  05 62 10 26 10 2D 00 00
 (1651678030.244991)  can0  7B9   [8]  05 62 10 26 10 2D 00 00
 (1651678031.465002)  can0  7B9   [8]  05 62 10 26 10 2D 00 00
 (1651678032.672525)  can0  7B9   [8]  05 62 10 26 10 3D 00 00
 (1651678033.897455)  can0  7B9   [8]  05 62 10 26 10 2D 00 00
 (1651678035.127605)  can0  7B9   [8]  05 62 10 26 10 2D 00 00
 (1651678036.330024)  can0  7B9   [8]  05 62 10 26 10 3D 00 00
 (1651678037.575088)  can0  7B9   [8]  05 62 10 26 10 3D 00 00
 (1651678038.782600)  can0  7B9   [8]  05 62 10 26 10 3D 00 00
 (1651678040.075170)  can0  7B9   [8]  05 62 10 26 10 3D 00 00
 (1651678041.335172)  can0  7B9   [8]  05 62 10 26 10 3D 00 00
 (1651678042.542710)  can0  7B9   [8]  05 62 10 26 10 3D 00 00
 (1651678043.805223)  can0  7B9   [8]  05 62 10 26 10 3D 00 00
 (1651678045.027789)  can0  7B9   [8]  05 62 10 26 10 3D 00 00
 (1651678046.290297)  can0  7B9   [8]  05 62 10 26 10 3D 00 00
 (1651678047.532831)  can0  7B9   [8]  05 62 10 26 10 3D 00 00
 (1651678048.756619)  can0  7B9   [8]  05 62 10 26 10 4C 00 00
 (1651678050.015401)  can0  7B9   [8]  05 62 10 26 10 3D 00 00
 (1651678051.240442)  can0  7B9   [8]  05 62 10 26 10 4C 00 00
 (1651678052.482968)  can0  7B9   [8]  05 62 10 26 10 4C 00 00
 (1651678053.760477)  can0  7B9   [8]  05 62 10 26 10 4C 00 00
 (1651678055.006757)  can0  7B9   [8]  05 62 10 26 10 4C 00 00
 (1651678056.301841)  can0  7B9   [8]  05 62 10 26 10 4C 00 00
 (1651678057.579325)  can0  7B9   [8]  05 62 10 26 10 5C 00 00
 (1651678058.800620)  can0  7B9   [8]  05 62 10 26 10 5C 00 00
 (1651678060.046956)  can0  7B9   [8]  05 62 10 26 10 4C 00 00
 (1651678061.304440)  can0  7B9   [8]  05 62 10 26 10 5C 00 00
 (1651678062.513181)  can0  7B9   [8]  05 62 10 26 10 5C 00 00
 (1651678063.789469)  can0  7B9   [8]  05 62 10 26 10 5C 00 00
 (1651678065.048263)  can0  7B9   [8]  05 62 10 26 10 6C 00 00
 (1651678066.310819)  can0  7B9   [8]  05 62 10 26 10 5C 00 00
 (1651678067.533348)  can0  7B9   [8]  05 62 10 26 10 5C 00 00
 (1651678068.777144)  can0  7B9   [8]  05 62 10 26 10 6C 00 00
 (1651678069.988764)  can0  7B9   [8]  05 62 10 26 10 6C 00 00
 (1651678071.244683)  can0  7B9   [8]  05 62 10 26 10 6C 00 00
 (1651678072.485949)  can0  7B9   [8]  05 62 10 26 10 6C 00 00
 (1651678073.710959)  can0  7B9   [8]  05 62 10 26 10 6C 00 00
 (1651678074.953509)  can0  7B9   [8]  05 62 10 26 10 6C 00 00
 (1651678076.213557)  can0  7B9   [8]  05 62 10 26 10 7C 00 00
 (1651678077.438546)  can0  7B9   [8]  05 62 10 26 10 7C 00 00
 (1651678078.698643)  can0  7B9   [8]  05 62 10 26 10 7C 00 00
 (1651678079.959883)  can0  7B9   [8]  05 62 10 26 10 7C 00 00
 (1651678081.219931)  can0  7B9   [8]  05 62 10 26 10 7C 00 00
 (1651678082.479941)  can0  7B9   [8]  05 62 10 26 10 7C 00 00
 (1651678083.791250)  can0  7B9   [8]  05 62 10 26 10 7C 00 00
 (1651678084.998859)  can0  7B9   [8]  05 62 10 26 10 7C 00 00
 (1651678086.258882)  can0  7B9   [8]  05 62 10 26 10 7C 00 00
 (1651678087.482997)  can0  7B9   [8]  05 62 10 26 10 7C 00 00
 (1651678088.673860)  can0  7B9   [8]  05 62 10 26 10 8C 00 00
 (1651678089.902617)  can0  7B9   [8]  05 62 10 26 10 7C 00 00
 (1651678091.126481)  can0  7B9   [8]  05 62 10 26 10 7C 00 00
 (1651678092.386430)  can0  7B9   [8]  05 62 10 26 10 8C 00 00
 (1651678093.610228)  can0  7B9   [8]  05 62 10 26 10 8C 00 00
 (1651678094.851539)  can0  7B9   [8]  05 62 10 26 10 8C 00 00
 (1651678096.061560)  can0  7B9   [8]  05 62 10 26 10 8C 00 00
 (1651678097.319181)  can0  7B9   [8]  05 62 10 26 10 8C 00 00
 (1651678098.529103)  can0  7B9   [8]  05 62 10 26 10 8C 00 00
 (1651678099.751643)  can0  7B9   [8]  05 62 10 26 10 8C 00 00
 (1651678100.997915)  can0  7B9   [8]  05 62 10 26 10 8C 00 00
 (1651678102.254215)  can0  7B9   [8]  05 62 10 26 10 8C 00 00
 (1651678103.549235)  can0  7B9   [8]  05 62 10 26 10 8C 00 00
 (1651678104.812995)  can0  7B9   [8]  05 62 10 26 10 8C 00 00
 (1651678106.035643)  can0  7B9   [8]  05 62 10 26 10 8C 00 00
 (1651678107.278066)  can0  7B9   [8]  05 62 10 26 10 9B 00 00
 (1651678108.520649)  can0  7B9   [8]  05 62 10 26 10 8C 00 00
 (1651678109.726870)  can0  7B9   [8]  05 62 10 26 10 9B 00 00
 (1651678110.971910)  can0  7B9   [8]  05 62 10 26 10 9B 00 00
 (1651678112.211971)  can0  7B9   [8]  05 62 10 26 10 9B 00 00
 (1651678113.507006)  can0  7B9   [8]  05 62 10 26 10 9B 00 00
 (1651678114.732000)  can0  7B9   [8]  05 62 10 26 10 9B 00 00
 (1651678115.994488)  can0  7B9   [8]  05 62 10 26 10 9B 00 00
 (1651678117.199635)  can0  7B9   [8]  05 62 10 26 10 AB 00 00
 (1651678118.477081)  can0  7B9   [8]  05 62 10 26 10 9B 00 00
 (1651678119.684638)  can0  7B9   [8]  05 62 10 26 10 9B 00 00
 (1651678120.927197)  can0  7B9   [8]  05 62 10 26 10 9B 00 00
 (1651678122.152200)  can0  7B9   [8]  05 62 10 26 10 AB 00 00
 (1651678123.377204)  can0  7B9   [8]  05 62 10 26 10 AB 00 00
 (1651678124.637264)  can0  7B9   [8]  05 62 10 26 10 AB 00 00
 (1651678125.932290)  can0  7B9   [8]  05 62 10 26 10 AB 00 00
 (1651678127.141052)  can0  7B9   [8]  05 62 10 26 10 AB 00 00
 (1651678128.364830)  can0  7B9   [8]  05 62 10 26 10 AB 00 00
 (1651678129.573608)  can0  7B9   [8]  05 62 10 26 10 BB 00 00
 (1651678130.816538)  can0  7B9   [8]  05 62 10 26 10 AB 00 00
 (1651678132.077455)  can0  7B9   [8]  05 62 10 26 10 AB 00 00
 (1651678133.372499)  can0  7B9   [8]  05 62 10 26 10 BB 00 00
 (1651678134.651191)  can0  7B9   [8]  05 62 10 26 10 BB 00 00
 (1651678135.925013)  can0  7B9   [8]  05 62 10 26 10 BB 00 00
 (1651678137.115063)  can0  7B9   [8]  05 62 10 26 10 BB 00 00
 (1651678138.361328)  can0  7B9   [8]  05 62 10 26 10 BB 00 00
 (1651678139.652622)  can0  7B9   [8]  05 62 10 26 10 BB 00 00
 (1651678140.915143)  can0  7B9   [8]  05 62 10 26 10 BB 00 00
 (1651678142.207668)  can0  7B9   [8]  05 62 10 26 10 CB 00 00
 (1651678143.452687)  can0  7B9   [8]  05 62 10 26 10 BB 00 00
 (1651678144.641657)  can0  7B9   [8]  05 62 10 26 10 CB 00 00
 (1651678145.885279)  can0  7B9   [8]  05 62 10 26 10 CB 00 00
 (1651678147.145272)  can0  7B9   [8]  05 62 10 26 10 CB 00 00
 (1651678148.385352)  can0  7B9   [8]  05 62 10 26 10 CB 00 00
 (1651678149.610362)  can0  7B9   [8]  05 62 10 26 10 CB 00 00
 (1651678150.835623)  can0  7B9   [8]  05 62 10 26 10 CB 00 00
 (1651678152.079149)  can0  7B9   [8]  05 62 10 26 10 DB 00 00
 (1651678153.274226)  can0  7B9   [8]  05 62 10 26 10 CB 00 00
 (1651678154.495467)  can0  7B9   [8]  05 62 10 26 10 DB 00 00
 (1651678155.683115)  can0  7B9   [8]  05 62 10 26 10 DB 00 00
 (1651678156.960563)  can0  7B9   [8]  05 62 10 26 10 DB 00 00
 (1651678158.153075)  can0  7B9   [8]  05 62 10 26 10 DB 00 00
 (1651678159.340645)  can0  7B9   [8]  05 62 10 26 10 DB 00 00
 (1651678160.639452)  can0  7B9   [8]  05 62 10 26 10 CB 00 00
 (1651678161.895667)  can0  7B9   [8]  05 62 10 26 10 DB 00 00
 (1651678163.161933)  can0  7B9   [8]  05 62 10 26 10 DB 00 00
 (1651678164.398287)  can0  7B9   [8]  05 62 10 26 10 DB 00 00
 (1651678165.623238)  can0  7B9   [8]  05 62 10 26 10 EA 00 00
 (1651678166.868342)  can0  7B9   [8]  05 62 10 26 10 DB 00 00
 (1651678168.090805)  can0  7B9   [8]  05 62 10 26 10 EA 00 00
 (1651678169.298860)  can0  7B9   [8]  05 62 10 26 10 EA 00 00
 (1651678170.488386)  can0  7B9   [8]  05 62 10 26 10 EA 00 00
 (1651678171.699666)  can0  7B9   [8]  05 62 10 26 10 EA 00 00
 (1651678172.920942)  can0  7B9   [8]  05 62 10 26 10 EA 00 00
 (1651678174.167205)  can0  7B9   [8]  05 62 10 26 10 EA 00 00
 (1651678175.440977)  can0  7B9   [8]  05 62 10 26 10 FA 00 00
 (1651678176.718535)  can0  7B9   [8]  05 62 10 26 10 FA 00 00
 (1651678177.947323)  can0  7B9   [8]  05 62 10 26 10 EA 00 00
 (1651678179.151094)  can0  7B9   [8]  05 62 10 26 10 FA 00 00
 (1651678180.393668)  can0  7B9   [8]  05 62 10 26 10 FA 00 00
 (1651678181.601247)  can0  7B9   [8]  05 62 10 26 10 FA 00 00
 (1651678182.791302)  can0  7B9   [8]  05 62 10 26 10 FA 00 00
 (1651678184.068701)  can0  7B9   [8]  05 62 10 26 10 FA 00 00
 (1651678185.329962)  can0  7B9   [8]  05 62 10 26 11 0A 00 00
 (1651678186.588767)  can0  7B9   [8]  05 62 10 26 10 FA 00 00
 (1651678187.815035)  can0  7B9   [8]  05 62 10 26 11 0A 00 00
 (1651678189.073838)  can0  7B9   [8]  05 62 10 26 11 0A 00 00
 (1651678190.281378)  can0  7B9   [8]  05 62 10 26 11 1A 00 00
 (1651678191.541412)  can0  7B9   [8]  05 62 10 26 11 1A 00 00
 (1651678192.801429)  can0  7B9   [8]  05 62 10 26 11 1A 00 00
 (1651678194.043956)  can0  7B9   [8]  05 62 10 26 11 1A 00 00
 (1651678195.306851)  can0  7B9   [8]  05 62 10 26 11 1A 00 00
 (1651678196.530265)  can0  7B9   [8]  05 62 10 26 11 1A 00 00
 (1651678197.806550)  can0  7B9   [8]  05 62 10 26 11 2A 00 00
 (1651678199.107823)  can0  7B9   [8]  05 62 10 26 11 1A 00 00
 (1651678200.344151)  can0  7B9   [8]  05 62 10 26 11 1A 00 00
 (1651678201.537029)  can0  7B9   [8]  05 62 10 26 11 2A 00 00
 (1651678202.706700)  can0  7B9   [8]  05 62 10 26 11 2A 00 00
 (1651678203.914199)  can0  7B9   [8]  05 62 10 26 11 2A 00 00
 (1651678205.123002)  can0  7B9   [8]  05 62 10 26 11 39 00 00
 (1651678206.399255)  can0  7B9   [8]  05 62 10 26 11 39 00 00
 (1651678207.695554)  can0  7B9   [8]  05 62 10 26 11 39 00 00
 (1651678208.989333)  can0  7B9   [8]  05 62 10 26 11 39 00 00
 (1651678210.233381)  can0  7B9   [8]  05 62 10 26 11 39 00 00
 (1651678211.475648)  can0  7B9   [8]  05 62 10 26 11 49 00 00
 (1651678212.786927)  can0  7B9   [8]  05 62 10 26 11 49 00 00
 (1651678214.014434)  can0  7B9   [8]  05 62 10 26 11 49 00 00
 (1651678215.272100)  can0  7B9   [8]  05 62 10 26 11 49 00 00
 (1651678216.514524)  can0  7B9   [8]  05 62 10 26 11 49 00 00
 (1651678217.792054)  can0  7B9   [8]  05 62 10 26 11 49 00 00
 (1651678219.003329)  can0  7B9   [8]  05 62 10 26 11 59 00 00
 (1651678220.294604)  can0  7B9   [8]  05 62 10 26 11 59 00 00
 (1651678221.590881)  can0  7B9   [8]  05 62 10 26 11 59 00 00
 (1651678222.817139)  can0  7B9   [8]  05 62 10 26 11 59 00 00
 (1651678224.039686)  can0  7B9   [8]  05 62 10 26 11 59 00 00
 (1651678225.334717)  can0  7B9   [8]  05 62 10 26 11 69 00 00
 (1651678226.559759)  can0  7B9   [8]  05 62 10 26 11 69 00 00
 (1651678227.769783)  can0  7B9   [8]  05 62 10 26 11 79 00 00
 (1651678229.062318)  can0  7B9   [8]  05 62 10 26 11 69 00 00
 (1651678230.340177)  can0  7B9   [8]  05 62 10 26 11 69 00 00
 (1651678231.547402)  can0  7B9   [8]  05 62 10 26 11 79 00 00
 (1651678232.808668)  can0  7B9   [8]  05 62 10 26 11 79 00 00
 (1651678234.049985)  can0  7B9   [8]  05 62 10 26 11 79 00 00
 (1651678235.276183)  can0  7B9   [8]  05 62 10 26 11 79 00 00
 (1651678236.552513)  can0  7B9   [8]  05 62 10 26 11 79 00 00
 (1651678237.742500)  can0  7B9   [8]  05 62 10 26 11 88 00 00
 (1651678238.985061)  can0  7B9   [8]  05 62 10 26 11 88 00 00
 (1651678240.262607)  can0  7B9   [8]  05 62 10 26 11 88 00 00
 (1651678241.505115)  can0  7B9   [8]  05 62 10 26 11 98 00 00
 (1651678242.699360)  can0  7B9   [8]  05 62 10 26 11 98 00 00
 (1651678243.938931)  can0  7B9   [8]  05 62 10 26 11 98 00 00
 (1651678245.197730)  can0  7B9   [8]  05 62 10 26 11 98 00 00
 (1651678246.440217)  can0  7B9   [8]  05 62 10 26 11 98 00 00
 (1651678247.650280)  can0  7B9   [8]  05 62 10 26 11 98 00 00
 (1651678248.907821)  can0  7B9   [8]  05 62 10 26 11 98 00 00
 (1651678250.170353)  can0  7B9   [8]  05 62 10 26 11 A8 00 00
 (1651678251.427842)  can0  7B9   [8]  05 62 10 26 11 A8 00 00
 (1651678252.672901)  can0  7B9   [8]  05 62 10 26 11 A8 00 00
 (1651678253.951679)  can0  7B9   [8]  05 62 10 26 11 A8 00 00
 (1651678255.195499)  can0  7B9   [8]  05 62 10 26 11 A8 00 00
 (1651678256.397986)  can0  7B9   [8]  05 62 10 26 11 B8 00 00
 (1651678257.694248)  can0  7B9   [8]  05 62 10 26 11 B8 00 00
 (1651678258.970590)  can0  7B9   [8]  05 62 10 26 11 B8 00 00
 (1651678260.265627)  can0  7B9   [8]  05 62 10 26 11 B8 00 00
 (1651678261.543445)  can0  7B9   [8]  05 62 10 26 11 B8 00 00
 (1651678262.750660)  can0  7B9   [8]  05 62 10 26 11 B8 00 00
 (1651678263.994413)  can0  7B9   [8]  05 62 10 26 11 B8 00 00
 (1651678265.308232)  can0  7B9   [8]  05 62 10 26 11 C8 00 00
 (1651678266.533228)  can0  7B9   [8]  05 62 10 26 11 C8 00 00
 (1651678267.738293)  can0  7B9   [8]  05 62 10 26 11 C8 00 00
 (1651678268.980822)  can0  7B9   [8]  05 62 10 26 11 C8 00 00
 (1651678270.193303)  can0  7B9   [8]  05 62 10 26 11 C8 00 00
 (1651678271.449623)  can0  7B9   [8]  05 62 10 26 11 C8 00 00
 (1651678272.655888)  can0  7B9   [8]  05 62 10 26 11 D7 00 00
 (1651678273.899687)  can0  7B9   [8]  05 62 10 26 11 D7 00 00
 (1651678275.140928)  can0  7B9   [8]  05 62 10 26 11 D7 00 00
 (1651678276.350939)  can0  7B9   [8]  05 62 10 26 11 D7 00 00
 (1651678277.573551)  can0  7B9   [8]  05 62 10 26 11 D7 00 00
 (1651678278.851034)  can0  7B9   [8]  05 62 10 26 11 E7 00 00
 (1651678280.129777)  can0  7B9   [8]  05 62 10 26 11 E7 00 00
 (1651678281.353615)  can0  7B9   [8]  05 62 10 26 11 F7 00 00
 (1651678282.562849)  can0  7B9   [8]  05 62 10 26 11 F7 00 00
 (1651678283.803677)  can0  7B9   [8]  05 62 10 26 11 E7 00 00
 (1651678285.011210)  can0  7B9   [8]  05 62 10 26 11 F7 00 00
 (1651678286.309981)  can0  7B9   [8]  05 62 10 26 11 F7 00 00
 (1651678287.583858)  can0  7B9   [8]  05 62 10 26 11 F7 00 00
 (1651678288.913778)  can0  7B9   [8]  05 62 10 26 11 F7 00 00
 (1651678290.176333)  can0  7B9   [8]  05 62 10 26 11 F7 00 00
 (1651678291.400582)  can0  7B9   [8]  05 62 10 26 12 07 00 00
 (1651678292.588898)  can0  7B9   [8]  05 62 10 26 12 07 00 00
 (1651678293.813896)  can0  7B9   [8]  05 62 10 26 12 07 00 00
 (1651678295.056430)  can0  7B9   [8]  05 62 10 26 12 07 00 00
 (1651678296.281433)  can0  7B9   [8]  05 62 10 26 11 F7 00 00
 (1651678297.491532)  can0  7B9   [8]  05 62 10 26 12 07 00 00
 (1651678298.644024)  can0  7B9   [8]  05 62 10 26 12 07 00 00
 (1651678299.872851)  can0  7B9   [8]  05 62 10 26 12 07 00 00
 (1651678301.166552)  can0  7B9   [8]  05 62 10 26 12 17 00 00
 (1651678302.427849)  can0  7B9   [8]  05 62 10 26 12 07 00 00
 (1651678303.701652)  can0  7B9   [8]  05 62 10 26 12 07 00 00
 (1651678304.929163)  can0  7B9   [8]  05 62 10 26 12 07 00 00
 (1651678306.139403)  can0  7B9   [8]  05 62 10 26 12 17 00 00
 (1651678307.376780)  can0  7B9   [8]  05 62 10 26 12 17 00 00
 (1651678308.569255)  can0  7B9   [8]  05 62 10 26 12 17 00 00
 (1651678309.844464)  can0  7B9   [8]  05 62 10 26 12 26 00 00
 (1651678311.054414)  can0  7B9   [8]  05 62 10 26 12 17 00 00
 (1651678312.259375)  can0  7B9   [8]  05 62 10 26 12 26 00 00
 (1651678313.434670)  can0  7B9   [8]  05 62 10 26 12 17 00 00
 (1651678314.676890)  can0  7B9   [8]  05 62 10 26 12 26 00 00
 (1651678315.900674)  can0  7B9   [8]  05 62 10 26 12 26 00 00
 (1651678317.170700)  can0  7B9   [8]  05 62 10 26 12 26 00 00
 (1651678318.402012)  can0  7B9   [8]  05 62 10 26 12 26 00 00
 (1651678319.668320)  can0  7B9   [8]  05 62 10 26 12 26 00 00
 (1651678320.853350)  can0  7B9   [8]  05 62 10 26 12 26 00 00
 (1651678322.060831)  can0  7B9   [8]  05 62 10 26 12 36 00 00
 (1651678323.372534)  can0  7B9   [8]  05 62 10 26 12 36 00 00
 (1651678324.668425)  can0  7B9   [8]  05 62 10 26 12 26 00 00
 (1651678325.915106)  can0  7B9   [8]  05 62 10 26 12 36 00 00
 (1651678327.137216)  can0  7B9   [8]  05 62 10 26 12 36 00 00
 (1651678328.379761)  can0  7B9   [8]  05 62 10 26 12 36 00 00
 (1651678329.584813)  can0  7B9   [8]  05 62 10 26 12 36 00 00
 (1651678330.809797)  can0  7B9   [8]  05 62 10 26 12 36 00 00
 (1651678332.002404)  can0  7B9   [8]  05 62 10 26 12 36 00 00
 (1651678333.252417)  can0  7B9   [8]  05 62 10 26 12 46 00 00
 (1651678334.452438)  can0  7B9   [8]  05 62 10 26 12 46 00 00
 (1651678335.693669)  can0  7B9   [8]  05 62 10 26 12 36 00 00
 (1651678336.919972)  can0  7B9   [8]  05 62 10 26 12 46 00 00
 (1651678338.142589)  can0  7B9   [8]  05 62 10 26 12 46 00 00
 (1651678339.405034)  can0  7B9   [8]  05 62 10 26 12 46 00 00
 (1651678340.612552)  can0  7B9   [8]  05 62 10 26 12 46 00 00
 (1651678341.782588)  can0  7B9   [8]  05 62 10 26 12 46 00 00
 (1651678343.025116)  can0  7B9   [8]  05 62 10 26 12 46 00 00
 (1651678344.267645)  can0  7B9   [8]  05 62 10 26 12 56 00 00
 (1651678345.545215)  can0  7B9   [8]  05 62 10 26 12 56 00 00
 (1651678346.755658)  can0  7B9   [8]  05 62 10 26 12 46 00 00
 (1651678347.995219)  can0  7B9   [8]  05 62 10 26 12 46 00 00
 (1651678349.221514)  can0  7B9   [8]  05 62 10 26 12 56 00 00
 (1651678350.480303)  can0  7B9   [8]  05 62 10 26 12 56 00 00
 (1651678351.706588)  can0  7B9   [8]  05 62 10 26 12 56 00 00
 (1651678352.930380)  can0  7B9   [8]  05 62 10 26 12 56 00 00
 (1651678354.155610)  can0  7B9   [8]  05 62 10 26 12 56 00 00
 (1651678355.345395)  can0  7B9   [8]  05 62 10 26 12 56 00 00
 (1651678356.607950)  can0  7B9   [8]  05 62 10 26 12 66 00 00
 (1651678357.849261)  can0  7B9   [8]  05 62 10 26 12 66 00 00
 (1651678359.090555)  can0  7B9   [8]  05 62 10 26 12 66 00 00
 (1651678360.371809)  can0  7B9   [8]  05 62 10 26 12 66 00 00
 (1651678361.614532)  can0  7B9   [8]  05 62 10 26 12 66 00 00
 (1651678362.835640)  can0  7B9   [8]  05 62 10 26 12 75 00 00
 (1651678364.025629)  can0  7B9   [8]  05 62 10 26 12 75 00 00
 (1651678365.303169)  can0  7B9   [8]  05 62 10 26 12 75 00 00
 (1651678366.565705)  can0  7B9   [8]  05 62 10 26 12 75 00 00
 (1651678367.875720)  can0  7B9   [8]  05 62 10 26 12 75 00 00
 (1651678369.139512)  can0  7B9   [8]  05 62 10 26 12 75 00 00
 (1651678370.380866)  can0  7B9   [8]  05 62 10 26 12 75 00 00
 (1651678371.604560)  can0  7B9   [8]  05 62 10 26 12 75 00 00
 (1651678372.810880)  can0  7B9   [8]  05 62 10 26 12 85 00 00
 (1651678374.020891)  can0  7B9   [8]  05 62 10 26 12 75 00 00
 (1651678375.228404)  can0  7B9   [8]  05 62 10 26 12 85 00 00
 (1651678376.485934)  can0  7B9   [8]  05 62 10 26 12 85 00 00
 (1651678377.693483)  can0  7B9   [8]  05 62 10 26 12 75 00 00
 (1651678379.006026)  can0  7B9   [8]  05 62 10 26 12 85 00 00
 (1651678380.286017)  can0  7B9   [8]  05 62 10 26 12 75 00 00
 (1651678381.492346)  can0  7B9   [8]  05 62 10 26 12 85 00 00
 (1651678382.736115)  can0  7B9   [8]  05 62 10 26 12 85 00 00
 (1651678383.961150)  can0  7B9   [8]  05 62 10 26 12 85 00 00
 (1651678385.220278)  can0  7B9   [8]  05 62 10 26 12 85 00 00
 (1651678386.446259)  can0  7B9   [8]  05 62 10 26 12 85 00 00
 (1651678387.723728)  can0  7B9   [8]  05 62 10 26 12 85 00 00
 (1651678389.016250)  can0  7B9   [8]  05 62 10 26 12 85 00 00
 (1651678390.241268)  can0  7B9   [8]  05 62 10 26 12 85 00 00
 (1651678391.445103)  can0  7B9   [8]  05 62 10 26 12 85 00 00
 (1651678392.710069)  can0  7B9   [8]  05 62 10 26 12 95 00 00
 (1651678393.920115)  can0  7B9   [8]  05 62 10 26 12 95 00 00
 (1651678395.158898)  can0  7B9   [8]  05 62 10 26 12 85 00 00
 (1651678396.386430)  can0  7B9   [8]  05 62 10 26 12 85 00 00
 (1651678397.626429)  can0  7B9   [8]  05 62 10 26 12 95 00 00
 (1651678398.799018)  can0  7B9   [8]  05 62 10 26 12 95 00 00
 (1651678400.059011)  can0  7B9   [8]  05 62 10 26 12 95 00 00
 (1651678401.336550)  can0  7B9   [8]  05 62 10 26 12 95 00 00
 (1651678402.564072)  can0  7B9   [8]  05 62 10 26 12 A5 00 00
 (1651678403.804104)  can0  7B9   [8]  05 62 10 26 12 A5 00 00
 (1651678405.047894)  can0  7B9   [8]  05 62 10 26 12 B5 00 00
 (1651678406.324178)  can0  7B9   [8]  05 62 10 26 12 B5 00 00
 (1651678407.500393)  can0  7B9   [8]  05 62 10 26 12 C4 00 00
 (1651678408.721729)  can0  7B9   [8]  05 62 10 26 12 C4 00 00
 (1651678410.019256)  can0  7B9   [8]  05 62 10 26 12 C4 00 00
 (1651678411.276809)  can0  7B9   [8]  05 62 10 26 12 C4 00 00
 (1651678412.501783)  can0  7B9   [8]  05 62 10 26 12 C4 00 00
 (1651678413.779350)  can0  7B9   [8]  05 62 10 26 12 D4 00 00
 (1651678415.039379)  can0  7B9   [8]  05 62 10 26 12 D4 00 00
 (1651678416.300667)  can0  7B9   [8]  05 62 10 26 12 D4 00 00
 (1651678417.647340)  can0  7B9   [8]  05 62 10 26 12 E4 00 00
 (1651678418.959475)  can0  7B9   [8]  05 62 10 26 12 D4 00 00
 (1651678420.189962)  can0  7B9   [8]  05 62 10 26 12 E4 00 00
 (1651678421.429537)  can0  7B9   [8]  05 62 10 26 12 E4 00 00
 (1651678422.672065)  can0  7B9   [8]  05 62 10 26 12 E4 00 00
 (1651678423.894618)  can0  7B9   [8]  05 62 10 26 12 E4 00 00
 (1651678425.154641)  can0  7B9   [8]  05 62 10 26 12 F4 00 00
 (1651678426.433470)  can0  7B9   [8]  05 62 10 26 12 F4 00 00
 (1651678427.677187)  can0  7B9   [8]  05 62 10 26 12 F4 00 00
 (1651678428.868488)  can0  7B9   [8]  05 62 10 26 12 F4 00 00
 (1651678430.108494)  can0  7B9   [8]  05 62 10 26 13 04 00 00
 (1651678431.349845)  can0  7B9   [8]  05 62 10 26 12 F4 00 00
 (1651678432.559843)  can0  7B9   [8]  05 62 10 26 13 04 00 00
 (1651678433.782340)  can0  7B9   [8]  05 62 10 26 13 04 00 00
 (1651678435.027348)  can0  7B9   [8]  05 62 10 26 13 04 00 00
 (1651678436.284971)  can0  7B9   [8]  05 62 10 26 13 04 00 00
 (1651678437.564917)  can0  7B9   [8]  05 62 10 26 13 04 00 00
 (1651678438.877463)  can0  7B9   [8]  05 62 10 26 13 13 00 00
